                      mextram gummel test ic,b,s=f(vc,ib)
                      DC transfer characteristic  Mon Dec  2 18:31:36  2024
--------------------------------------------------------------------------------
Index   v-sweep         abs(i(vc))      abs(i(vb))      abs(i(vs))      
--------------------------------------------------------------------------------
0	2.000000e-01	1.063619e-08	7.064103e-03	1.548322e-30	
1	2.100000e-01	1.064772e-08	7.417348e-03	2.146851e-30	
2	2.200000e-01	1.065922e-08	7.770599e-03	3.160007e-30	
3	2.300000e-01	1.067071e-08	8.123853e-03	4.651341e-30	
4	2.400000e-01	1.068219e-08	8.477112e-03	6.846556e-30	
5	2.500000e-01	1.069365e-08	8.830374e-03	1.007790e-29	
6	2.600000e-01	1.070510e-08	9.183640e-03	1.483442e-29	
7	2.700000e-01	1.071654e-08	9.536910e-03	2.183606e-29	
8	2.800000e-01	1.072796e-08	9.890184e-03	3.214252e-29	
9	2.900000e-01	1.073937e-08	1.024346e-02	4.731374e-29	
10	3.000000e-01	1.075076e-08	1.059674e-02	6.964600e-29	
11	3.100000e-01	1.076214e-08	1.095003e-02	1.025194e-28	
12	3.200000e-01	1.077351e-08	1.130332e-02	1.509096e-28	
13	3.300000e-01	1.078486e-08	1.165661e-02	2.221408e-28	
14	3.400000e-01	1.079620e-08	1.200990e-02	3.269943e-28	
15	3.500000e-01	1.080752e-08	1.236320e-02	4.813406e-28	
16	3.600000e-01	1.081883e-08	1.271651e-02	7.085412e-28	
17	3.700000e-01	1.083012e-08	1.306982e-02	1.042985e-27	
18	3.800000e-01	1.084140e-08	1.342313e-02	1.535292e-27	
19	3.900000e-01	1.085267e-08	1.377644e-02	2.259977e-27	
20	4.000000e-01	1.086392e-08	1.412976e-02	3.326727e-27	
21	4.100000e-01	1.087516e-08	1.448308e-02	4.897004e-27	
22	4.200000e-01	1.088638e-08	1.483641e-02	7.208481e-27	
23	4.300000e-01	1.089759e-08	1.518974e-02	1.061102e-26	
24	4.400000e-01	1.090879e-08	1.554307e-02	1.561962e-26	
25	4.500000e-01	1.091997e-08	1.589641e-02	2.299238e-26	
26	4.600000e-01	1.093114e-08	1.624975e-02	3.384521e-26	
27	4.700000e-01	1.094229e-08	1.660309e-02	4.982080e-26	
28	4.800000e-01	1.095343e-08	1.695644e-02	7.333717e-26	
29	4.900000e-01	1.096455e-08	1.730979e-02	1.079537e-25	
30	5.000000e-01	1.097566e-08	1.766315e-02	1.589099e-25	
31	5.100000e-01	1.098675e-08	1.801650e-02	2.339184e-25	
32	5.200000e-01	1.099783e-08	1.836987e-02	3.443324e-25	
33	5.300000e-01	1.100890e-08	1.872323e-02	5.068639e-25	
34	5.400000e-01	1.101995e-08	1.907660e-02	7.461133e-25	
35	5.500000e-01	1.103099e-08	1.942997e-02	1.098293e-24	
36	5.600000e-01	1.104201e-08	1.978335e-02	1.616708e-24	
37	5.700000e-01	1.105301e-08	2.013673e-02	2.379826e-24	
38	5.800000e-01	1.106401e-08	2.049011e-02	3.503149e-24	
39	5.900000e-01	1.107499e-08	2.084350e-02	5.156702e-24	
40	6.000000e-01	1.108595e-08	2.119689e-02	7.590764e-24	
41	6.100000e-01	1.109690e-08	2.155028e-02	1.117375e-23	
42	6.200000e-01	1.110783e-08	2.190368e-02	1.644797e-23	
43	6.300000e-01	1.111875e-08	2.225708e-02	2.421173e-23	
44	6.400000e-01	1.112966e-08	2.261048e-02	3.564013e-23	
45	6.500000e-01	1.114055e-08	2.296389e-02	5.246296e-23	
46	6.600000e-01	1.115142e-08	2.331730e-02	7.722648e-23	
47	6.700000e-01	1.116228e-08	2.367071e-02	1.136789e-22	
48	6.800000e-01	1.117313e-08	2.402413e-02	1.673374e-22	
49	6.900000e-01	1.118396e-08	2.437755e-02	2.463239e-22	
50	7.000000e-01	1.119478e-08	2.473098e-02	3.625935e-22	
51	7.100000e-01	1.120558e-08	2.508440e-02	5.337446e-22	
52	7.200000e-01	1.121636e-08	2.543783e-02	7.856823e-22	
53	7.300000e-01	1.122714e-08	2.579127e-02	1.156539e-21	
54	7.400000e-01	1.123789e-08	2.614471e-02	1.702448e-21	

Index   v-sweep         abs(i(vc))      abs(i(vb))      abs(i(vs))      
--------------------------------------------------------------------------------
55	7.500000e-01	1.124864e-08	2.649815e-02	2.506036e-21	
56	7.600000e-01	1.125936e-08	2.685159e-02	3.688933e-21	
57	7.700000e-01	1.127007e-08	2.720504e-02	5.430180e-21	
58	7.800000e-01	1.128077e-08	2.755849e-02	7.993329e-21	
59	7.900000e-01	1.129145e-08	2.791194e-02	1.176633e-20	
60	8.000000e-01	1.130212e-08	2.826540e-02	1.732027e-20	
61	8.100000e-01	1.131277e-08	2.861886e-02	2.549576e-20	
62	8.200000e-01	1.132341e-08	2.897233e-02	3.753025e-20	
63	8.300000e-01	1.133403e-08	2.932579e-02	5.524525e-20	
64	8.400000e-01	1.134464e-08	2.967926e-02	8.132207e-20	
65	8.500000e-01	1.135523e-08	3.003274e-02	1.197076e-19	
66	8.600000e-01	1.136581e-08	3.038622e-02	1.762119e-19	
67	8.700000e-01	1.137637e-08	3.073970e-02	2.593873e-19	
68	8.800000e-01	1.138691e-08	3.109318e-02	3.818231e-19	
69	8.900000e-01	1.139744e-08	3.144667e-02	5.620509e-19	
70	9.000000e-01	1.140796e-08	3.180016e-02	8.273497e-19	
71	9.100000e-01	1.141846e-08	3.215365e-02	1.217875e-18	
72	9.200000e-01	1.142895e-08	3.250715e-02	1.792735e-18	
73	9.300000e-01	1.143942e-08	3.286065e-02	2.638940e-18	
74	9.400000e-01	1.144987e-08	3.321415e-02	3.884570e-18	
75	9.500000e-01	1.146031e-08	3.356766e-02	5.718161e-18	
76	9.600000e-01	1.147073e-08	3.392116e-02	8.417243e-18	
77	9.700000e-01	1.148114e-08	3.427468e-02	1.239034e-17	
78	9.800000e-01	1.149154e-08	3.462819e-02	1.823882e-17	
79	9.900000e-01	1.150191e-08	3.498171e-02	2.684789e-17	
80	1.000000e+00	1.151227e-08	3.533523e-02	3.952061e-17	
81	1.010000e+00	1.152262e-08	3.568876e-02	5.817510e-17	
82	1.020000e+00	1.153295e-08	3.604229e-02	8.563486e-17	
83	1.030000e+00	1.154327e-08	3.639582e-02	1.260561e-16	
84	1.040000e+00	1.155357e-08	3.674935e-02	1.855571e-16	
85	1.050000e+00	1.156385e-08	3.710289e-02	2.731435e-16	
86	1.060000e+00	1.157412e-08	3.745643e-02	4.020725e-16	
87	1.070000e+00	1.158438e-08	3.780997e-02	5.918584e-16	
88	1.080000e+00	1.159461e-08	3.816352e-02	8.712270e-16	
89	1.090000e+00	1.160484e-08	3.851707e-02	1.282463e-15	
90	1.100000e+00	1.161504e-08	3.887062e-02	1.887810e-15	
91	1.110000e+00	1.162523e-08	3.922418e-02	2.778892e-15	
92	1.120000e+00	1.163541e-08	3.957773e-02	4.090582e-15	
93	1.130000e+00	1.164557e-08	3.993130e-02	6.021415e-15	
94	1.140000e+00	1.165571e-08	4.028486e-02	8.863638e-15	
95	1.150000e+00	1.166584e-08	4.063843e-02	1.304745e-14	
96	1.160000e+00	1.167595e-08	4.099200e-02	1.920609e-14	
97	1.170000e+00	1.168604e-08	4.134557e-02	2.827173e-14	
98	1.180000e+00	1.169612e-08	4.169915e-02	4.161653e-14	
99	1.190000e+00	1.170619e-08	4.205273e-02	6.126033e-14	
100	1.200000e+00	1.171623e-08	4.240631e-02	9.017637e-14	
101	1.210000e+00	1.172626e-08	4.275990e-02	1.327413e-13	
102	1.220000e+00	1.173627e-08	4.311349e-02	1.953978e-13	
103	1.230000e+00	1.174627e-08	4.346708e-02	2.876293e-13	
104	1.240000e+00	1.175624e-08	4.382067e-02	4.233958e-13	
105	1.250000e+00	1.176620e-08	4.417427e-02	6.232468e-13	
106	1.260000e+00	1.177613e-08	4.452787e-02	9.174311e-13	
107	1.270000e+00	1.178604e-08	4.488147e-02	1.350476e-12	
108	1.280000e+00	1.179592e-08	4.523508e-02	1.987927e-12	
109	1.290000e+00	1.180576e-08	4.558869e-02	2.926266e-12	
110	1.300000e+00	1.181556e-08	4.594230e-02	4.307520e-12	
111	1.310000e+00	1.182530e-08	4.629592e-02	6.340752e-12	
112	1.320000e+00	1.183497e-08	4.664953e-02	9.333707e-12	

Index   v-sweep         abs(i(vc))      abs(i(vb))      abs(i(vs))      
--------------------------------------------------------------------------------
113	1.330000e+00	1.184452e-08	4.700315e-02	1.373940e-11	
114	1.340000e+00	1.185384e-08	4.735678e-02	2.147002e-11	
115	1.350000e+00	1.186300e-08	4.771040e-02	3.160427e-11	
116	1.360000e+00	1.187183e-08	4.806403e-02	4.652209e-11	
117	1.370000e+00	1.188019e-08	4.841767e-02	6.848140e-11	
118	1.380000e+00	1.188787e-08	4.877130e-02	1.008059e-10	
119	1.390000e+00	1.189455e-08	4.912494e-02	1.483882e-10	
120	1.400000e+00	1.189978e-08	4.947858e-02	2.184302e-10	
