                      sample netlist asmhemt: id plot hemt
                      DC transfer characteristic  Wed Jan  8 15:45:47  2025
--------------------------------------------------------------------------------
Index   v-sweep         v(dt)           abs(i(vd))      
--------------------------------------------------------------------------------
0	0.000000e+00	0.000000e+00	0.000000e+00	
1	1.000000e-01	8.833940e-03	3.533576e-02	
2	2.000000e-01	3.057535e-02	6.115071e-02	
3	3.000000e-01	5.831935e-02	7.775914e-02	
4	4.000000e-01	8.803449e-02	8.803449e-02	
5	5.000000e-01	1.180914e-01	9.447310e-02	
6	6.000000e-01	1.479672e-01	9.864477e-02	
7	7.000000e-01	1.775418e-01	1.014524e-01	
8	8.000000e-01	2.068234e-01	1.034117e-01	
9	9.000000e-01	2.358534e-01	1.048237e-01	
10	1.000000e+00	2.646762e-01	1.058705e-01	
11	1.100000e+00	2.933302e-01	1.066655e-01	
12	1.200000e+00	3.219110e-01	1.073617e-01	
13	1.300000e+00	3.503038e-01	1.078277e-01	
14	1.400000e+00	3.786064e-01	1.082043e-01	
15	1.500000e+00	4.068339e-01	1.085125e-01	
16	1.600000e+00	4.349984e-01	1.087676e-01	
17	1.700000e+00	4.631094e-01	1.089810e-01	
18	1.800000e+00	4.911749e-01	1.091611e-01	
19	1.900000e+00	5.192012e-01	1.093144e-01	
20	2.000000e+00	5.471935e-01	1.094459e-01	
21	2.100000e+00	5.751563e-01	1.095595e-01	
22	2.200000e+00	6.030932e-01	1.096582e-01	
23	2.300000e+00	6.310072e-01	1.097444e-01	
24	2.400000e+00	6.589009e-01	1.098202e-01	
25	2.500000e+00	6.867766e-01	1.098871e-01	
26	2.600000e+00	7.146362e-01	1.099465e-01	
27	2.700000e+00	7.424812e-01	1.099993e-01	
28	2.800000e+00	7.703132e-01	1.100465e-01	
29	2.900000e+00	7.981332e-01	1.100889e-01	
30	3.000000e+00	8.259425e-01	1.101270e-01	
31	3.100000e+00	8.537418e-01	1.101614e-01	
32	3.200000e+00	8.815322e-01	1.101926e-01	
33	3.300000e+00	9.093142e-01	1.102208e-01	
34	3.400000e+00	9.370886e-01	1.102465e-01	
35	3.500000e+00	9.648559e-01	1.102699e-01	
36	3.600000e+00	9.926166e-01	1.102914e-01	
37	3.700000e+00	1.020371e+00	1.103110e-01	
38	3.800000e+00	1.048120e+00	1.103289e-01	
39	3.900000e+00	1.075864e+00	1.103454e-01	
40	4.000000e+00	1.103602e+00	1.103606e-01	
41	4.100000e+00	1.131336e+00	1.103746e-01	
42	4.200000e+00	1.159066e+00	1.103875e-01	
43	4.300000e+00	1.186791e+00	1.103995e-01	
44	4.400000e+00	1.214513e+00	1.104105e-01	
45	4.500000e+00	1.242231e+00	1.104207e-01	
46	4.600000e+00	1.269945e+00	1.104302e-01	
47	4.700000e+00	1.297656e+00	1.104390e-01	
48	4.800000e+00	1.325363e+00	1.104471e-01	
49	4.900000e+00	1.353068e+00	1.104547e-01	
50	5.000000e+00	1.380770e+00	1.104617e-01	
51	5.100000e+00	1.408469e+00	1.104683e-01	
52	5.200000e+00	1.436165e+00	1.104744e-01	
53	5.300000e+00	1.463859e+00	1.104800e-01	
54	5.400000e+00	1.491550e+00	1.104853e-01	

Index   v-sweep         v(dt)           abs(i(vd))      
--------------------------------------------------------------------------------
55	5.500000e+00	1.519239e+00	1.104902e-01	
56	5.600000e+00	1.546926e+00	1.104948e-01	
57	5.700000e+00	1.574611e+00	1.104991e-01	
58	5.800000e+00	1.602293e+00	1.105031e-01	
59	5.900000e+00	1.629974e+00	1.105068e-01	
60	6.000000e+00	1.657652e+00	1.105102e-01	
61	6.100000e+00	1.685329e+00	1.105134e-01	
62	6.200000e+00	1.713003e+00	1.105164e-01	
63	6.300000e+00	1.740676e+00	1.105192e-01	
64	6.400000e+00	1.768347e+00	1.105217e-01	
65	6.500000e+00	1.796017e+00	1.105241e-01	
66	6.600000e+00	1.823684e+00	1.105264e-01	
67	6.700000e+00	1.851351e+00	1.105284e-01	
68	6.800000e+00	1.879015e+00	1.105303e-01	
69	6.900000e+00	1.906678e+00	1.105321e-01	
70	7.000000e+00	1.934340e+00	1.105337e-01	
71	7.100000e+00	1.962000e+00	1.105352e-01	
72	7.200000e+00	1.989658e+00	1.105366e-01	
73	7.300000e+00	2.017315e+00	1.105378e-01	
74	7.400000e+00	2.044971e+00	1.105390e-01	
75	7.500000e+00	2.072626e+00	1.105400e-01	
76	7.600000e+00	2.100279e+00	1.105410e-01	
77	7.700000e+00	2.127930e+00	1.105419e-01	
78	7.800000e+00	2.155581e+00	1.105426e-01	
79	7.900000e+00	2.183230e+00	1.105433e-01	
80	8.000000e+00	2.210878e+00	1.105439e-01	
81	8.100000e+00	2.238525e+00	1.105444e-01	
82	8.200000e+00	2.266170e+00	1.105449e-01	
83	8.300000e+00	2.293815e+00	1.105453e-01	
84	8.400000e+00	2.321458e+00	1.105456e-01	
85	8.500000e+00	2.349100e+00	1.105459e-01	
86	8.600000e+00	2.376741e+00	1.105461e-01	
87	8.700000e+00	2.404381e+00	1.105462e-01	
88	8.800000e+00	2.432019e+00	1.105463e-01	
89	8.900000e+00	2.459657e+00	1.105464e-01	
90	9.000000e+00	2.487294e+00	1.105464e-01	
91	9.100000e+00	2.514929e+00	1.105463e-01	
92	9.200000e+00	2.542563e+00	1.105462e-01	
93	9.300000e+00	2.570197e+00	1.105461e-01	
94	9.400000e+00	2.597829e+00	1.105459e-01	
95	9.500000e+00	2.625460e+00	1.105457e-01	
96	9.600000e+00	2.653090e+00	1.105454e-01	
97	9.700000e+00	2.680720e+00	1.105451e-01	
98	9.800000e+00	2.708348e+00	1.105448e-01	
99	9.900000e+00	2.735975e+00	1.105444e-01	
100	1.000000e+01	2.763601e+00	1.105441e-01	
101	1.010000e+01	2.791227e+00	1.105436e-01	
102	1.020000e+01	2.818851e+00	1.105432e-01	
103	1.030000e+01	2.846475e+00	1.105427e-01	
104	1.040000e+01	2.874097e+00	1.105422e-01	
105	1.050000e+01	2.901718e+00	1.105416e-01	
106	1.060000e+01	2.929339e+00	1.105411e-01	
107	1.070000e+01	2.956959e+00	1.105405e-01	
108	1.080000e+01	2.984577e+00	1.105399e-01	
109	1.090000e+01	3.012195e+00	1.105393e-01	
110	1.100000e+01	3.039812e+00	1.105386e-01	
111	1.110000e+01	3.067428e+00	1.105379e-01	
112	1.120000e+01	3.095043e+00	1.105372e-01	

Index   v-sweep         v(dt)           abs(i(vd))      
--------------------------------------------------------------------------------
113	1.130000e+01	3.122657e+00	1.105365e-01	
114	1.140000e+01	3.150271e+00	1.105358e-01	
115	1.150000e+01	3.177883e+00	1.105351e-01	
116	1.160000e+01	3.205495e+00	1.105343e-01	
117	1.170000e+01	3.233105e+00	1.105335e-01	
118	1.180000e+01	3.260715e+00	1.105327e-01	
119	1.190000e+01	3.288324e+00	1.105319e-01	
120	1.200000e+01	3.315932e+00	1.105311e-01	
121	1.210000e+01	3.343539e+00	1.105302e-01	
122	1.220000e+01	3.371146e+00	1.105294e-01	
123	1.230000e+01	3.398751e+00	1.105285e-01	
124	1.240000e+01	3.426356e+00	1.105276e-01	
125	1.250000e+01	3.453960e+00	1.105267e-01	
126	1.260000e+01	3.481563e+00	1.105258e-01	
127	1.270000e+01	3.509165e+00	1.105249e-01	
128	1.280000e+01	3.536766e+00	1.105239e-01	
129	1.290000e+01	3.564367e+00	1.105230e-01	
130	1.300000e+01	3.591966e+00	1.105220e-01	
131	1.310000e+01	3.619565e+00	1.105211e-01	
132	1.320000e+01	3.647163e+00	1.105201e-01	
133	1.330000e+01	3.674761e+00	1.105191e-01	
134	1.340000e+01	3.702357e+00	1.105181e-01	
135	1.350000e+01	3.729953e+00	1.105171e-01	
136	1.360000e+01	3.757547e+00	1.105161e-01	
137	1.370000e+01	3.785141e+00	1.105151e-01	
138	1.380000e+01	3.812735e+00	1.105140e-01	
139	1.390000e+01	3.840327e+00	1.105130e-01	
140	1.400000e+01	3.867919e+00	1.105120e-01	
141	1.410000e+01	3.895510e+00	1.105109e-01	
142	1.420000e+01	3.923100e+00	1.105098e-01	
143	1.430000e+01	3.950689e+00	1.105088e-01	
144	1.440000e+01	3.978277e+00	1.105077e-01	
145	1.450000e+01	4.005865e+00	1.105066e-01	
146	1.460000e+01	4.033452e+00	1.105055e-01	
147	1.470000e+01	4.061038e+00	1.105044e-01	
148	1.480000e+01	4.088623e+00	1.105033e-01	
149	1.490000e+01	4.116208e+00	1.105022e-01	
150	1.500000e+01	4.143792e+00	1.105011e-01	
151	1.510000e+01	4.171375e+00	1.105000e-01	
152	1.520000e+01	4.198957e+00	1.104989e-01	
153	1.530000e+01	4.226538e+00	1.104977e-01	
154	1.540000e+01	4.254119e+00	1.104966e-01	
155	1.550000e+01	4.281699e+00	1.104955e-01	
156	1.560000e+01	4.309278e+00	1.104943e-01	
157	1.570000e+01	4.336857e+00	1.104932e-01	
158	1.580000e+01	4.364434e+00	1.104920e-01	
159	1.590000e+01	4.392011e+00	1.104908e-01	
160	1.600000e+01	4.419587e+00	1.104897e-01	
161	1.610000e+01	4.447163e+00	1.104885e-01	
162	1.620000e+01	4.474737e+00	1.104873e-01	
163	1.630000e+01	4.502311e+00	1.104862e-01	
164	1.640000e+01	4.529884e+00	1.104850e-01	
165	1.650000e+01	4.557457e+00	1.104838e-01	
166	1.660000e+01	4.585028e+00	1.104826e-01	
167	1.670000e+01	4.612599e+00	1.104814e-01	
168	1.680000e+01	4.640169e+00	1.104802e-01	
169	1.690000e+01	4.667739e+00	1.104790e-01	
170	1.700000e+01	4.695308e+00	1.104778e-01	

Index   v-sweep         v(dt)           abs(i(vd))      
--------------------------------------------------------------------------------
171	1.710000e+01	4.722875e+00	1.104766e-01	
172	1.720000e+01	4.750443e+00	1.104754e-01	
173	1.730000e+01	4.778009e+00	1.104742e-01	
174	1.740000e+01	4.805575e+00	1.104730e-01	
175	1.750000e+01	4.833140e+00	1.104718e-01	
176	1.760000e+01	4.860704e+00	1.104705e-01	
177	1.770000e+01	4.888267e+00	1.104693e-01	
178	1.780000e+01	4.915830e+00	1.104681e-01	
179	1.790000e+01	4.943392e+00	1.104669e-01	
180	1.800000e+01	4.970954e+00	1.104656e-01	
181	1.810000e+01	4.998514e+00	1.104644e-01	
182	1.820000e+01	5.026074e+00	1.104632e-01	
183	1.830000e+01	5.053633e+00	1.104619e-01	
184	1.840000e+01	5.081192e+00	1.104607e-01	
185	1.850000e+01	5.108749e+00	1.104594e-01	
186	1.860000e+01	5.136306e+00	1.104582e-01	
187	1.870000e+01	5.163862e+00	1.104569e-01	
188	1.880000e+01	5.191418e+00	1.104557e-01	
189	1.890000e+01	5.218973e+00	1.104544e-01	
190	1.900000e+01	5.246527e+00	1.104532e-01	
191	1.910000e+01	5.274080e+00	1.104519e-01	
192	1.920000e+01	5.301633e+00	1.104507e-01	
193	1.930000e+01	5.329185e+00	1.104494e-01	
194	1.940000e+01	5.356736e+00	1.104482e-01	
195	1.950000e+01	5.384286e+00	1.104469e-01	
196	1.960000e+01	5.411836e+00	1.104456e-01	
197	1.970000e+01	5.439385e+00	1.104444e-01	
198	1.980000e+01	5.466933e+00	1.104431e-01	
199	1.990000e+01	5.494481e+00	1.104418e-01	
200	2.000000e+01	5.522028e+00	1.104406e-01	
201	2.010000e+01	5.549574e+00	1.104393e-01	
202	2.020000e+01	5.577120e+00	1.104380e-01	
203	2.030000e+01	5.604664e+00	1.104367e-01	
204	2.040000e+01	5.632208e+00	1.104355e-01	
205	2.050000e+01	5.659752e+00	1.104342e-01	
206	2.060000e+01	5.687295e+00	1.104329e-01	
207	2.070000e+01	5.714836e+00	1.104316e-01	
208	2.080000e+01	5.742378e+00	1.104303e-01	
209	2.090000e+01	5.769918e+00	1.104291e-01	
210	2.100000e+01	5.797458e+00	1.104278e-01	
211	2.110000e+01	5.824997e+00	1.104265e-01	
212	2.120000e+01	5.852536e+00	1.104252e-01	
213	2.130000e+01	5.880073e+00	1.104239e-01	
214	2.140000e+01	5.907610e+00	1.104226e-01	
215	2.150000e+01	5.935147e+00	1.104213e-01	
216	2.160000e+01	5.962682e+00	1.104200e-01	
217	2.170000e+01	5.990217e+00	1.104187e-01	
218	2.180000e+01	6.017752e+00	1.104175e-01	
219	2.190000e+01	6.045285e+00	1.104162e-01	
220	2.200000e+01	6.072818e+00	1.104149e-01	
221	2.210000e+01	6.100350e+00	1.104136e-01	
222	2.220000e+01	6.127882e+00	1.104123e-01	
223	2.230000e+01	6.155412e+00	1.104110e-01	
224	2.240000e+01	6.182943e+00	1.104097e-01	
225	2.250000e+01	6.210472e+00	1.104084e-01	
226	2.260000e+01	6.238001e+00	1.104071e-01	
227	2.270000e+01	6.265529e+00	1.104058e-01	
228	2.280000e+01	6.293056e+00	1.104045e-01	

Index   v-sweep         v(dt)           abs(i(vd))      
--------------------------------------------------------------------------------
229	2.290000e+01	6.320583e+00	1.104032e-01	
230	2.300000e+01	6.348108e+00	1.104019e-01	
231	2.310000e+01	6.375634e+00	1.104006e-01	
232	2.320000e+01	6.403158e+00	1.103993e-01	
233	2.330000e+01	6.430682e+00	1.103980e-01	
234	2.340000e+01	6.458205e+00	1.103967e-01	
235	2.350000e+01	6.485728e+00	1.103954e-01	
236	2.360000e+01	6.513250e+00	1.103941e-01	
237	2.370000e+01	6.540771e+00	1.103927e-01	
238	2.380000e+01	6.568291e+00	1.103914e-01	
239	2.390000e+01	6.595811e+00	1.103901e-01	
240	2.400000e+01	6.623330e+00	1.103888e-01	
241	2.410000e+01	6.650848e+00	1.103875e-01	
242	2.420000e+01	6.678366e+00	1.103862e-01	
243	2.430000e+01	6.705883e+00	1.103849e-01	
244	2.440000e+01	6.733399e+00	1.103836e-01	
245	2.450000e+01	6.760915e+00	1.103823e-01	
246	2.460000e+01	6.788430e+00	1.103810e-01	
247	2.470000e+01	6.815944e+00	1.103797e-01	
248	2.480000e+01	6.843458e+00	1.103783e-01	
249	2.490000e+01	6.870971e+00	1.103770e-01	
250	2.500000e+01	6.898483e+00	1.103757e-01	
251	2.510000e+01	6.925995e+00	1.103744e-01	
252	2.520000e+01	6.953506e+00	1.103731e-01	
253	2.530000e+01	6.981016e+00	1.103718e-01	
254	2.540000e+01	7.008525e+00	1.103705e-01	
255	2.550000e+01	7.036034e+00	1.103692e-01	
256	2.560000e+01	7.063543e+00	1.103678e-01	
257	2.570000e+01	7.091050e+00	1.103665e-01	
258	2.580000e+01	7.118557e+00	1.103652e-01	
259	2.590000e+01	7.146063e+00	1.103639e-01	
260	2.600000e+01	7.173569e+00	1.103626e-01	
261	2.610000e+01	7.201073e+00	1.103613e-01	
262	2.620000e+01	7.228578e+00	1.103600e-01	
263	2.630000e+01	7.256081e+00	1.103586e-01	
264	2.640000e+01	7.283584e+00	1.103573e-01	
265	2.650000e+01	7.311086e+00	1.103560e-01	
266	2.660000e+01	7.338588e+00	1.103547e-01	
267	2.670000e+01	7.366088e+00	1.103534e-01	
268	2.680000e+01	7.393589e+00	1.103521e-01	
269	2.690000e+01	7.421088e+00	1.103507e-01	
270	2.700000e+01	7.448587e+00	1.103494e-01	
271	2.710000e+01	7.476085e+00	1.103481e-01	
272	2.720000e+01	7.503582e+00	1.103468e-01	
273	2.730000e+01	7.531079e+00	1.103455e-01	
274	2.740000e+01	7.558575e+00	1.103442e-01	
275	2.750000e+01	7.586071e+00	1.103428e-01	
276	2.760000e+01	7.613566e+00	1.103415e-01	
277	2.770000e+01	7.641060e+00	1.103402e-01	
278	2.780000e+01	7.668553e+00	1.103389e-01	
279	2.790000e+01	7.696046e+00	1.103376e-01	
280	2.800000e+01	7.723538e+00	1.103363e-01	
281	2.810000e+01	7.751030e+00	1.103349e-01	
282	2.820000e+01	7.778521e+00	1.103336e-01	
283	2.830000e+01	7.806011e+00	1.103323e-01	
284	2.840000e+01	7.833500e+00	1.103310e-01	
285	2.850000e+01	7.860989e+00	1.103297e-01	
286	2.860000e+01	7.888477e+00	1.103284e-01	

Index   v-sweep         v(dt)           abs(i(vd))      
--------------------------------------------------------------------------------
287	2.870000e+01	7.915965e+00	1.103270e-01	
288	2.880000e+01	7.943452e+00	1.103257e-01	
289	2.890000e+01	7.970938e+00	1.103244e-01	
290	2.900000e+01	7.998424e+00	1.103231e-01	
291	2.910000e+01	8.025909e+00	1.103218e-01	
292	2.920000e+01	8.053393e+00	1.103204e-01	
293	2.930000e+01	8.080876e+00	1.103191e-01	
294	2.940000e+01	8.108359e+00	1.103178e-01	
295	2.950000e+01	8.135842e+00	1.103165e-01	
296	2.960000e+01	8.163323e+00	1.103152e-01	
297	2.970000e+01	8.190804e+00	1.103139e-01	
298	2.980000e+01	8.218284e+00	1.103125e-01	
299	2.990000e+01	8.245764e+00	1.103112e-01	
300	3.000000e+01	8.273243e+00	1.103099e-01	
301	3.010000e+01	8.300721e+00	1.103086e-01	
302	3.020000e+01	8.328199e+00	1.103073e-01	
303	3.030000e+01	8.355676e+00	1.103060e-01	
304	3.040000e+01	8.383153e+00	1.103046e-01	
305	3.050000e+01	8.410628e+00	1.103033e-01	
306	3.060000e+01	8.438103e+00	1.103020e-01	
307	3.070000e+01	8.465578e+00	1.103007e-01	
308	3.080000e+01	8.493052e+00	1.102994e-01	
309	3.090000e+01	8.520525e+00	1.102981e-01	
310	3.100000e+01	8.547997e+00	1.102967e-01	
311	3.110000e+01	8.575469e+00	1.102954e-01	
312	3.120000e+01	8.602940e+00	1.102941e-01	
313	3.130000e+01	8.630411e+00	1.102928e-01	
314	3.140000e+01	8.657881e+00	1.102915e-01	
315	3.150000e+01	8.685350e+00	1.102902e-01	
316	3.160000e+01	8.712819e+00	1.102888e-01	
317	3.170000e+01	8.740286e+00	1.102875e-01	
318	3.180000e+01	8.767754e+00	1.102862e-01	
319	3.190000e+01	8.795220e+00	1.102849e-01	
320	3.200000e+01	8.822686e+00	1.102836e-01	
321	3.210000e+01	8.850152e+00	1.102823e-01	
322	3.220000e+01	8.877617e+00	1.102809e-01	
323	3.230000e+01	8.905081e+00	1.102796e-01	
324	3.240000e+01	8.932544e+00	1.102783e-01	
325	3.250000e+01	8.960007e+00	1.102770e-01	
326	3.260000e+01	8.987469e+00	1.102757e-01	
327	3.270000e+01	9.014930e+00	1.102744e-01	
328	3.280000e+01	9.042391e+00	1.102731e-01	
329	3.290000e+01	9.069852e+00	1.102717e-01	
330	3.300000e+01	9.097311e+00	1.102704e-01	
331	3.310000e+01	9.124770e+00	1.102691e-01	
332	3.320000e+01	9.152228e+00	1.102678e-01	
333	3.330000e+01	9.179686e+00	1.102665e-01	
334	3.340000e+01	9.207143e+00	1.102652e-01	
335	3.350000e+01	9.234599e+00	1.102639e-01	
336	3.360000e+01	9.262055e+00	1.102626e-01	
337	3.370000e+01	9.289510e+00	1.102612e-01	
338	3.380000e+01	9.316965e+00	1.102599e-01	
339	3.390000e+01	9.344419e+00	1.102586e-01	
340	3.400000e+01	9.371872e+00	1.102573e-01	
341	3.410000e+01	9.399324e+00	1.102560e-01	
342	3.420000e+01	9.426776e+00	1.102547e-01	
343	3.430000e+01	9.454227e+00	1.102534e-01	
344	3.440000e+01	9.481678e+00	1.102521e-01	

Index   v-sweep         v(dt)           abs(i(vd))      
--------------------------------------------------------------------------------
345	3.450000e+01	9.509128e+00	1.102508e-01	
346	3.460000e+01	9.536577e+00	1.102494e-01	
347	3.470000e+01	9.564026e+00	1.102481e-01	
348	3.480000e+01	9.591474e+00	1.102468e-01	
349	3.490000e+01	9.618922e+00	1.102455e-01	
350	3.500000e+01	9.646369e+00	1.102442e-01	
351	3.510000e+01	9.673815e+00	1.102429e-01	
352	3.520000e+01	9.701260e+00	1.102416e-01	
353	3.530000e+01	9.728705e+00	1.102403e-01	
354	3.540000e+01	9.756150e+00	1.102390e-01	
355	3.550000e+01	9.783593e+00	1.102377e-01	
356	3.560000e+01	9.811036e+00	1.102364e-01	
357	3.570000e+01	9.838479e+00	1.102351e-01	
358	3.580000e+01	9.865920e+00	1.102337e-01	
359	3.590000e+01	9.893362e+00	1.102324e-01	
360	3.600000e+01	9.920802e+00	1.102311e-01	
361	3.610000e+01	9.948242e+00	1.102298e-01	
362	3.620000e+01	9.975681e+00	1.102285e-01	
363	3.630000e+01	1.000312e+01	1.102272e-01	
364	3.640000e+01	1.003056e+01	1.102259e-01	
365	3.650000e+01	1.005800e+01	1.102246e-01	
366	3.660000e+01	1.008543e+01	1.102233e-01	
367	3.670000e+01	1.011287e+01	1.102220e-01	
368	3.680000e+01	1.014030e+01	1.102207e-01	
369	3.690000e+01	1.016774e+01	1.102194e-01	
370	3.700000e+01	1.019517e+01	1.102181e-01	
371	3.710000e+01	1.022261e+01	1.102168e-01	
372	3.720000e+01	1.025004e+01	1.102155e-01	
373	3.730000e+01	1.027747e+01	1.102142e-01	
374	3.740000e+01	1.030490e+01	1.102129e-01	
375	3.750000e+01	1.033233e+01	1.102116e-01	
376	3.760000e+01	1.035976e+01	1.102103e-01	
377	3.770000e+01	1.038719e+01	1.102090e-01	
378	3.780000e+01	1.041462e+01	1.102077e-01	
379	3.790000e+01	1.044205e+01	1.102064e-01	
380	3.800000e+01	1.046948e+01	1.102051e-01	
381	3.810000e+01	1.049691e+01	1.102038e-01	
382	3.820000e+01	1.052433e+01	1.102025e-01	
383	3.830000e+01	1.055176e+01	1.102012e-01	
384	3.840000e+01	1.057919e+01	1.101999e-01	
385	3.850000e+01	1.060661e+01	1.101986e-01	
386	3.860000e+01	1.063404e+01	1.101973e-01	
387	3.870000e+01	1.066146e+01	1.101960e-01	
388	3.880000e+01	1.068888e+01	1.101947e-01	
389	3.890000e+01	1.071630e+01	1.101934e-01	
390	3.900000e+01	1.074373e+01	1.101921e-01	
391	3.910000e+01	1.077115e+01	1.101908e-01	
392	3.920000e+01	1.079857e+01	1.101895e-01	
393	3.930000e+01	1.082599e+01	1.101882e-01	
394	3.940000e+01	1.085341e+01	1.101869e-01	
395	3.950000e+01	1.088083e+01	1.101856e-01	
396	3.960000e+01	1.090824e+01	1.101843e-01	
397	3.970000e+01	1.093566e+01	1.101830e-01	
398	3.980000e+01	1.096308e+01	1.101817e-01	
399	3.990000e+01	1.099049e+01	1.101804e-01	
400	0.000000e+00	0.000000e+00	0.000000e+00	
401	1.000000e-01	1.387045e-02	5.548179e-02	
402	2.000000e-01	4.942280e-02	9.884559e-02	

Index   v-sweep         v(dt)           abs(i(vd))      
--------------------------------------------------------------------------------
403	3.000000e-01	9.672032e-02	1.289604e-01	
404	4.000000e-01	1.488522e-01	1.488522e-01	
405	5.000000e-01	2.024299e-01	1.619439e-01	
406	6.000000e-01	2.560936e-01	1.707291e-01	
407	7.000000e-01	3.093836e-01	1.767906e-01	
408	8.000000e-01	3.621931e-01	1.810965e-01	
409	9.000000e-01	4.145409e-01	1.842404e-01	
410	1.000000e+00	4.664836e-01	1.865934e-01	
411	1.100000e+00	5.180827e-01	1.883937e-01	
412	1.200000e+00	5.695293e-01	1.899748e-01	
413	1.300000e+00	6.205778e-01	1.910428e-01	
414	1.400000e+00	6.714287e-01	1.919079e-01	
415	1.500000e+00	7.221133e-01	1.926174e-01	
416	1.600000e+00	7.726567e-01	1.932056e-01	
417	1.700000e+00	8.230797e-01	1.936982e-01	
418	1.800000e+00	8.733990e-01	1.941144e-01	
419	1.900000e+00	9.236287e-01	1.944687e-01	
420	2.000000e+00	9.737803e-01	1.947727e-01	
421	2.100000e+00	1.023863e+00	1.950353e-01	
422	2.200000e+00	1.073886e+00	1.952633e-01	
423	2.300000e+00	1.123856e+00	1.954626e-01	
424	2.400000e+00	1.173778e+00	1.956375e-01	
425	2.500000e+00	1.223657e+00	1.957917e-01	
